!Agilent Technologies,N5230A,MY45001695,A.07.50.67
!Agilent N5230A: A.07.50.67
!Date: Thursday, August 18, 2016 06:57:26
!Correction: S11(Full 1 Port(1)) 
!S1P File: Measurement: S11:
# Hz S  dB   R 50
300000  -6.633018e+001  -1.791857e+002 
12799625  -6.594731e+001  1.766612e+002 
25299250  -6.567571e+001  1.687139e+002 
37798875  -6.557128e+001  1.644680e+002 
50298500  -6.537732e+001  1.622783e+002 
62798125  -6.462557e+001  1.559599e+002 
75297750  -6.450978e+001  1.517959e+002 
87797375  -6.450533e+001  1.458601e+002 
100297000  -6.399725e+001  1.406654e+002 
112796625  -6.384388e+001  1.358868e+002 
125296250  -6.327454e+001  1.323676e+002 
137795875  -6.315020e+001  1.295885e+002 
150295500  -6.268062e+001  1.256866e+002 
162795125  -6.256941e+001  1.225154e+002 
175294750  -6.221292e+001  1.195631e+002 
187794375  -6.171311e+001  1.151084e+002 
200294000  -6.153009e+001  1.083402e+002 
212793625  -6.111781e+001  1.082865e+002 
225293250  -6.097395e+001  1.070629e+002 
237792875  -6.098566e+001  1.008409e+002 
250292500  -6.049813e+001  1.001968e+002 
262792125  -5.999853e+001  9.746030e+001 
275291750  -5.977811e+001  9.525069e+001 
287791375  -5.957871e+001  9.235114e+001 
300291000  -5.932900e+001  9.157284e+001 
312790625  -5.891380e+001  8.851630e+001 
325290250  -5.890256e+001  8.743685e+001 
337789875  -5.875449e+001  8.492855e+001 
350289500  -5.862592e+001  8.270796e+001 
362789125  -5.826372e+001  8.152140e+001 
375288750  -5.802206e+001  7.985790e+001 
387788375  -5.784013e+001  7.823132e+001 
400288000  -5.765613e+001  7.799512e+001 
412787625  -5.732348e+001  7.521177e+001 
425287250  -5.735350e+001  7.317807e+001 
437786875  -5.701599e+001  7.196304e+001 
450286500  -5.703485e+001  7.092044e+001 
462786125  -5.718791e+001  7.057696e+001 
475285750  -5.628455e+001  6.796998e+001 
487785375  -5.627592e+001  6.689137e+001 
500285000  -5.611026e+001  6.401632e+001 
512784625  -5.590533e+001  6.322684e+001 
525284250  -5.578068e+001  6.269001e+001 
537783875  -5.562401e+001  6.156867e+001 
550283500  -5.538243e+001  6.020650e+001 
562783125  -5.532725e+001  5.917015e+001 
575282750  -5.521544e+001  5.844260e+001 
587782375  -5.507839e+001  5.618396e+001 
600282000  -5.478727e+001  5.574136e+001 
612781625  -5.464181e+001  5.445385e+001 
625281250  -5.455082e+001  5.322602e+001 
637780875  -5.444962e+001  5.204493e+001 
650280500  -5.431356e+001  5.061882e+001 
662780125  -5.418238e+001  4.977333e+001 
675279750  -5.402066e+001  4.789527e+001 
687779375  -5.397715e+001  4.645826e+001 
700279000  -5.379239e+001  4.636227e+001 
712778625  -5.352642e+001  4.499760e+001 
725278250  -5.351864e+001  4.378580e+001 
737777875  -5.325169e+001  4.300284e+001 
750277500  -5.318799e+001  4.228464e+001 
762777125  -5.303756e+001  4.158965e+001 
775276750  -5.288261e+001  4.009993e+001 
787776375  -5.279138e+001  3.902968e+001 
800276000  -5.268390e+001  3.731693e+001 
812775625  -5.250108e+001  3.735605e+001 
825275250  -5.230118e+001  3.528942e+001 
837774875  -5.228596e+001  3.413509e+001 
850274500  -5.225728e+001  3.397012e+001 
862774125  -5.221925e+001  3.301470e+001 
875273750  -5.197077e+001  3.252770e+001 
887773375  -5.172133e+001  3.175958e+001 
900273000  -5.176516e+001  3.028228e+001 
912772625  -5.165437e+001  2.946870e+001 
925272250  -5.140886e+001  2.911146e+001 
937771875  -5.121451e+001  2.785467e+001 
950271500  -5.115018e+001  2.680370e+001 
962771125  -5.106087e+001  2.589590e+001 
975270750  -5.091766e+001  2.470466e+001 
987770375  -5.077415e+001  2.414316e+001 
1000270000  -5.077781e+001  2.251287e+001 
1012769625  -5.061287e+001  2.184069e+001 
1025269250  -5.046037e+001  2.112867e+001 
1037768875  -5.041710e+001  2.041583e+001 
1050268500  -5.034505e+001  1.964793e+001 
1062768125  -5.010727e+001  1.948736e+001 
1075267750  -4.999567e+001  1.748911e+001 
1087767375  -4.995248e+001  1.650567e+001 
1100267000  -4.983928e+001  1.555959e+001 
1112766625  -4.979542e+001  1.465369e+001 
1125266250  -4.965375e+001  1.431017e+001 
1137765875  -4.959397e+001  1.383675e+001 
1150265500  -4.931949e+001  1.247714e+001 
1162765125  -4.933812e+001  1.212812e+001 
1175264750  -4.920687e+001  1.103721e+001 
1187764375  -4.913387e+001  9.576766e+000 
1200264000  -4.896677e+001  9.515688e+000 
1212763625  -4.891822e+001  8.358768e+000 
1225263250  -4.893336e+001  7.462193e+000 
1237762875  -4.880385e+001  7.016991e+000 
1250262500  -4.871651e+001  6.048291e+000 
1262762125  -4.868192e+001  5.389215e+000 
1275261750  -4.853089e+001  4.799742e+000 
1287761375  -4.837516e+001  4.072433e+000 
1300261000  -4.832850e+001  3.350426e+000 
1312760625  -4.823829e+001  2.926476e+000 
1325260250  -4.811640e+001  2.802995e+000 
1337759875  -4.796046e+001  1.935354e+000 
1350259500  -4.789541e+001  1.078858e+000 
1362759125  -4.772422e+001  1.031734e-001 
1375258750  -4.751549e+001  -7.953963e-001 
1387758375  -4.751718e+001  -1.839079e+000 
1400258000  -4.745274e+001  -2.181090e+000 
1412757625  -4.732962e+001  -2.897630e+000 
1425257250  -4.728725e+001  -3.396981e+000 
1437756875  -4.705547e+001  -4.663998e+000 
1450256500  -4.701888e+001  -4.696922e+000 
1462756125  -4.692214e+001  -5.328847e+000 
1475255750  -4.676532e+001  -6.057939e+000 
1487755375  -4.667664e+001  -6.812870e+000 
1500255000  -4.651433e+001  -7.372804e+000 
1512754625  -4.645776e+001  -8.295530e+000 
1525254250  -4.640414e+001  -8.885608e+000 
1537753875  -4.625462e+001  -9.458611e+000 
1550253500  -4.615759e+001  -1.034769e+001 
1562753125  -4.602901e+001  -1.118359e+001 
1575252750  -4.591785e+001  -1.146670e+001 
1587752375  -4.582006e+001  -1.216476e+001 
1600252000  -4.573895e+001  -1.344271e+001 
1612751625  -4.564947e+001  -1.409981e+001 
1625251250  -4.557269e+001  -1.493916e+001 
1637750875  -4.552905e+001  -1.522885e+001 
1650250500  -4.535494e+001  -1.597471e+001 
1662750125  -4.533935e+001  -1.679436e+001 
1675249750  -4.523017e+001  -1.711101e+001 
1687749375  -4.511380e+001  -1.770077e+001 
1700249000  -4.495482e+001  -1.828860e+001 
1712748625  -4.488248e+001  -1.901546e+001 
1725248250  -4.474555e+001  -1.962140e+001 
1737747875  -4.464362e+001  -2.010393e+001 
1750247500  -4.455316e+001  -2.080236e+001 
1762747125  -4.443913e+001  -2.183280e+001 
1775246750  -4.438253e+001  -2.229253e+001 
1787746375  -4.427594e+001  -2.286547e+001 
1800246000  -4.416278e+001  -2.338794e+001 
1812745625  -4.404190e+001  -2.422547e+001 
1825245250  -4.397051e+001  -2.489734e+001 
1837744875  -4.389664e+001  -2.570900e+001 
1850244500  -4.376480e+001  -2.626579e+001 
1862744125  -4.372022e+001  -2.690115e+001 
1875243750  -4.359946e+001  -2.762733e+001 
1887743375  -4.354422e+001  -2.830352e+001 
1900243000  -4.340113e+001  -2.868166e+001 
1912742625  -4.328941e+001  -2.949524e+001 
1925242250  -4.323482e+001  -3.022578e+001 
1937741875  -4.309921e+001  -3.076512e+001 
1950241500  -4.302616e+001  -3.125579e+001 
1962741125  -4.291639e+001  -3.186052e+001 
1975240750  -4.283813e+001  -3.279428e+001 
1987740375  -4.274488e+001  -3.335489e+001 
2000240000  -4.265205e+001  -3.392470e+001 
2012739625  -4.258297e+001  -3.485399e+001 
2025239250  -4.245962e+001  -3.536964e+001 
2037738875  -4.239557e+001  -3.600506e+001 
2050238500  -4.228617e+001  -3.646728e+001 
2062738125  -4.219105e+001  -3.712837e+001 
2075237750  -4.211086e+001  -3.795876e+001 
2087737375  -4.204195e+001  -3.833676e+001 
2100237000  -4.196544e+001  -3.907780e+001 
2112736625  -4.184634e+001  -3.979092e+001 
2125236250  -4.180682e+001  -4.011747e+001 
2137735875  -4.168708e+001  -4.098418e+001 
2150235500  -4.159076e+001  -4.130427e+001 
2162735125  -4.150467e+001  -4.185750e+001 
2175234750  -4.143256e+001  -4.270735e+001 
2187734375  -4.131483e+001  -4.305338e+001 
2200234000  -4.125251e+001  -4.366101e+001 
2212733625  -4.116348e+001  -4.414287e+001 
2225233250  -4.105920e+001  -4.505675e+001 
2237732875  -4.099779e+001  -4.558141e+001 
2250232500  -4.087962e+001  -4.627668e+001 
2262732125  -4.080980e+001  -4.668206e+001 
2275231750  -4.073043e+001  -4.718393e+001 
2287731375  -4.064039e+001  -4.789676e+001 
2300231000  -4.055544e+001  -4.849879e+001 
2312730625  -4.045829e+001  -4.900535e+001 
2325230250  -4.037683e+001  -4.988365e+001 
2337729875  -4.026759e+001  -5.029084e+001 
2350229500  -4.019629e+001  -5.101067e+001 
2362729125  -4.011024e+001  -5.155426e+001 
2375228750  -4.002428e+001  -5.196766e+001 
2387728375  -3.996226e+001  -5.263012e+001 
2400228000  -3.987004e+001  -5.329740e+001 
2412727625  -3.978145e+001  -5.365744e+001 
2425227250  -3.969592e+001  -5.436258e+001 
2437726875  -3.962412e+001  -5.493411e+001 
2450226500  -3.952357e+001  -5.545539e+001 
2462726125  -3.947233e+001  -5.599295e+001 
2475225750  -3.938334e+001  -5.651546e+001 
2487725375  -3.931290e+001  -5.698257e+001 
2500225000  -3.919993e+001  -5.766393e+001 
2512724625  -3.911805e+001  -5.824018e+001 
2525224250  -3.904174e+001  -5.875737e+001 
2537723875  -3.896413e+001  -5.959047e+001 
2550223500  -3.889547e+001  -6.010898e+001 
2562723125  -3.881213e+001  -6.047271e+001 
2575222750  -3.871786e+001  -6.126588e+001 
2587722375  -3.864939e+001  -6.165305e+001 
2600222000  -3.858783e+001  -6.233696e+001 
2612721625  -3.850331e+001  -6.280472e+001 
2625221250  -3.841674e+001  -6.335569e+001 
2637720875  -3.835308e+001  -6.381873e+001 
2650220500  -3.825626e+001  -6.431596e+001 
2662720125  -3.818147e+001  -6.465826e+001 
2675219750  -3.809196e+001  -6.537109e+001 
2687719375  -3.801871e+001  -6.594485e+001 
2700219000  -3.794436e+001  -6.650580e+001 
2712718625  -3.785844e+001  -6.714814e+001 
2725218250  -3.775849e+001  -6.765650e+001 
2737717875  -3.772007e+001  -6.813992e+001 
2750217500  -3.762455e+001  -6.865785e+001 
2762717125  -3.756567e+001  -6.922342e+001 
2775216750  -3.749448e+001  -6.966866e+001 
2787716375  -3.742019e+001  -7.028391e+001 
2800216000  -3.733766e+001  -7.092120e+001 
2812715625  -3.726802e+001  -7.145264e+001 
2825215250  -3.720552e+001  -7.194877e+001 
2837714875  -3.714964e+001  -7.244870e+001 
2850214500  -3.707486e+001  -7.299311e+001 
2862714125  -3.698332e+001  -7.345288e+001 
2875213750  -3.690611e+001  -7.399679e+001 
2887713375  -3.682972e+001  -7.436299e+001 
2900213000  -3.678754e+001  -7.505711e+001 
2912712625  -3.673133e+001  -7.555592e+001 
2925212250  -3.666114e+001  -7.607161e+001 
2937711875  -3.659858e+001  -7.661864e+001 
2950211500  -3.655347e+001  -7.713516e+001 
2962711125  -3.646830e+001  -7.768674e+001 
2975210750  -3.641100e+001  -7.807372e+001 
2987710375  -3.636597e+001  -7.835831e+001 
3000210000  -3.625684e+001  -7.884270e+001 
3012709625  -3.618892e+001  -7.930945e+001 
3025209250  -3.614342e+001  -7.974861e+001 
3037708875  -3.607551e+001  -8.028296e+001 
3050208500  -3.602244e+001  -8.072511e+001 
3062708125  -3.595572e+001  -8.109440e+001 
3075207750  -3.585167e+001  -8.142541e+001 
3087707375  -3.578987e+001  -8.187920e+001 
3100207000  -3.573313e+001  -8.234119e+001 
3112706625  -3.567192e+001  -8.288196e+001 
3125206250  -3.561071e+001  -8.329336e+001 
3137705875  -3.552812e+001  -8.353576e+001 
3150205500  -3.544101e+001  -8.405310e+001 
3162705125  -3.536085e+001  -8.447337e+001 
3175204750  -3.528785e+001  -8.509476e+001 
3187704375  -3.522228e+001  -8.564075e+001 
3200204000  -3.516888e+001  -8.616670e+001 
3212703625  -3.509776e+001  -8.647548e+001 
3225203250  -3.504003e+001  -8.688721e+001 
3237702875  -3.498374e+001  -8.720027e+001 
3250202500  -3.491267e+001  -8.773140e+001 
3262702125  -3.485173e+001  -8.818015e+001 
3275201750  -3.478665e+001  -8.847074e+001 
3287701375  -3.471644e+001  -8.879567e+001 
3300201000  -3.464402e+001  -8.912171e+001 
3312700625  -3.453540e+001  -8.958295e+001 
3325200250  -3.444624e+001  -9.020271e+001 
3337699875  -3.440821e+001  -9.078780e+001 
3350199500  -3.433955e+001  -9.118928e+001 
3362699125  -3.428669e+001  -9.164503e+001 
3375198750  -3.420051e+001  -9.195425e+001 
3387698375  -3.414563e+001  -9.248425e+001 
3400198000  -3.410548e+001  -9.285902e+001 
3412697625  -3.404048e+001  -9.313840e+001 
3425197250  -3.395191e+001  -9.347112e+001 
3437696875  -3.387529e+001  -9.381906e+001 
3450196500  -3.377405e+001  -9.419585e+001 
3462696125  -3.370839e+001  -9.473180e+001 
3475195750  -3.362928e+001  -9.511053e+001 
3487695375  -3.353447e+001  -9.567886e+001 
3500195000  -3.346765e+001  -9.608696e+001 
3512694625  -3.339212e+001  -9.670084e+001 
3525194250  -3.331860e+001  -9.728905e+001 
3537693875  -3.326592e+001  -9.786056e+001 
3550193500  -3.323275e+001  -9.832023e+001 
3562693125  -3.317697e+001  -9.868830e+001 
3575192750  -3.312906e+001  -9.911017e+001 
3587692375  -3.306567e+001  -9.942343e+001 
3600192000  -3.300135e+001  -9.967889e+001 
3612691625  -3.292707e+001  -1.000891e+002 
3625191250  -3.284401e+001  -1.004863e+002 
3637690875  -3.276746e+001  -1.009721e+002 
3650190500  -3.268680e+001  -1.013734e+002 
3662690125  -3.262494e+001  -1.019766e+002 
3675189750  -3.254707e+001  -1.023747e+002 
3687689375  -3.248473e+001  -1.028509e+002 
3700189000  -3.241490e+001  -1.033595e+002 
3712688625  -3.235590e+001  -1.038432e+002 
3725188250  -3.230283e+001  -1.043089e+002 
3737687875  -3.224459e+001  -1.046944e+002 
3750187500  -3.218209e+001  -1.051794e+002 
3762687125  -3.213553e+001  -1.055850e+002 
3775186750  -3.206354e+001  -1.058940e+002 
3787686375  -3.200581e+001  -1.062884e+002 
3800186000  -3.193565e+001  -1.066846e+002 
3812685625  -3.186434e+001  -1.071475e+002 
3825185250  -3.179991e+001  -1.075463e+002 
3837684875  -3.173154e+001  -1.080190e+002 
3850184500  -3.165795e+001  -1.084652e+002 
3862684125  -3.160228e+001  -1.088244e+002 
3875183750  -3.153047e+001  -1.093390e+002 
3887683375  -3.147039e+001  -1.097048e+002 
3900183000  -3.140044e+001  -1.101868e+002 
3912682625  -3.133380e+001  -1.106499e+002 
3925182250  -3.127430e+001  -1.110619e+002 
3937681875  -3.122337e+001  -1.115481e+002 
3950181500  -3.115067e+001  -1.120339e+002 
3962681125  -3.110793e+001  -1.124758e+002 
3975180750  -3.104132e+001  -1.129605e+002 
3987680375  -3.098460e+001  -1.132946e+002 
4000180000  -3.093435e+001  -1.137902e+002 
4012679625  -3.086983e+001  -1.141961e+002 
4025179250  -3.081673e+001  -1.145526e+002 
4037678875  -3.074532e+001  -1.150078e+002 
4050178500  -3.068840e+001  -1.154302e+002 
4062678125  -3.062741e+001  -1.158598e+002 
4075177750  -3.055972e+001  -1.162889e+002 
4087677375  -3.050197e+001  -1.167311e+002 
4100177000  -3.044138e+001  -1.171077e+002 
4112676625  -3.038522e+001  -1.175250e+002 
4125176250  -3.032463e+001  -1.180524e+002 
4137675875  -3.026758e+001  -1.184294e+002 
4150175500  -3.020990e+001  -1.189072e+002 
4162675125  -3.015507e+001  -1.193301e+002 
4175174750  -3.010209e+001  -1.196954e+002 
4187674375  -3.004183e+001  -1.202026e+002 
4200174000  -2.997478e+001  -1.205662e+002 
4212673625  -2.991794e+001  -1.210437e+002 
4225173250  -2.987304e+001  -1.214086e+002 
4237672875  -2.981807e+001  -1.219039e+002 
4250172500  -2.976134e+001  -1.222785e+002 
4262672125  -2.970639e+001  -1.226582e+002 
4275171750  -2.965588e+001  -1.231403e+002 
4287671375  -2.960094e+001  -1.234786e+002 
4300171000  -2.954183e+001  -1.239039e+002 
4312670625  -2.949006e+001  -1.243543e+002 
4325170250  -2.942939e+001  -1.247386e+002 
4337669875  -2.937634e+001  -1.252476e+002 
4350169500  -2.933521e+001  -1.255776e+002 
4362669125  -2.927905e+001  -1.259415e+002 
4375168750  -2.922841e+001  -1.263234e+002 
4387668375  -2.916081e+001  -1.267314e+002 
4400168000  -2.912001e+001  -1.271311e+002 
4412667625  -2.906436e+001  -1.275468e+002 
4425167250  -2.900651e+001  -1.279568e+002 
4437666875  -2.896117e+001  -1.283315e+002 
4450166500  -2.890368e+001  -1.287016e+002 
4462666125  -2.886291e+001  -1.291994e+002 
4475165750  -2.880337e+001  -1.295040e+002 
4487665375  -2.874223e+001  -1.298724e+002 
4500165000  -2.869374e+001  -1.302838e+002 
4512664625  -2.863622e+001  -1.306564e+002 
4525164250  -2.858714e+001  -1.310500e+002 
4537663875  -2.853079e+001  -1.314791e+002 
4550163500  -2.848417e+001  -1.318819e+002 
4562663125  -2.842156e+001  -1.322924e+002 
4575162750  -2.837497e+001  -1.326531e+002 
4587662375  -2.832066e+001  -1.330712e+002 
4600162000  -2.826323e+001  -1.334259e+002 
4612661625  -2.821836e+001  -1.338511e+002 
4625161250  -2.816617e+001  -1.342099e+002 
4637660875  -2.812583e+001  -1.346123e+002 
4650160500  -2.805866e+001  -1.349822e+002 
4662660125  -2.800515e+001  -1.353447e+002 
4675159750  -2.796217e+001  -1.357416e+002 
4687659375  -2.790512e+001  -1.361479e+002 
4700159000  -2.785348e+001  -1.365925e+002 
4712658625  -2.779725e+001  -1.369377e+002 
4725158250  -2.775090e+001  -1.373045e+002 
4737657875  -2.770362e+001  -1.376932e+002 
4750157500  -2.764812e+001  -1.380939e+002 
4762657125  -2.759873e+001  -1.384829e+002 
4775156750  -2.754728e+001  -1.388410e+002 
4787656375  -2.750226e+001  -1.392174e+002 
4800156000  -2.744245e+001  -1.396160e+002 
4812655625  -2.740362e+001  -1.400281e+002 
4825155250  -2.734613e+001  -1.404053e+002 
4837654875  -2.730053e+001  -1.407630e+002 
4850154500  -2.724740e+001  -1.411973e+002 
4862654125  -2.720039e+001  -1.415516e+002 
4875153750  -2.715103e+001  -1.419784e+002 
4887653375  -2.710167e+001  -1.423474e+002 
4900153000  -2.704440e+001  -1.427381e+002 
4912652625  -2.700225e+001  -1.431135e+002 
4925152250  -2.695911e+001  -1.435318e+002 
4937651875  -2.691147e+001  -1.439469e+002 
4950151500  -2.685709e+001  -1.443193e+002 
4962651125  -2.681471e+001  -1.446690e+002 
4975150750  -2.677191e+001  -1.450428e+002 
4987650375  -2.672580e+001  -1.454216e+002 
5000150000  -2.668094e+001  -1.458216e+002 
5012649625  -2.663022e+001  -1.461591e+002 
5025149250  -2.658158e+001  -1.465918e+002 
5037648875  -2.654329e+001  -1.469673e+002 
5050148500  -2.649408e+001  -1.473616e+002 
5062648125  -2.645000e+001  -1.477803e+002 
5075147750  -2.640399e+001  -1.481027e+002 
5087647375  -2.636562e+001  -1.484843e+002 
5100147000  -2.631749e+001  -1.488216e+002 
5112646625  -2.626760e+001  -1.491850e+002 
5125146250  -2.621894e+001  -1.496199e+002 
5137645875  -2.617434e+001  -1.499788e+002 
5150145500  -2.613286e+001  -1.503554e+002 
5162645125  -2.608672e+001  -1.507241e+002 
5175144750  -2.604562e+001  -1.511268e+002 
5187644375  -2.600882e+001  -1.514911e+002 
5200144000  -2.596267e+001  -1.518814e+002 
5212643625  -2.591395e+001  -1.522443e+002 
5225143250  -2.587607e+001  -1.526313e+002 
5237642875  -2.583347e+001  -1.530026e+002 
5250142500  -2.579584e+001  -1.533675e+002 
5262642125  -2.574732e+001  -1.537233e+002 
5275141750  -2.570998e+001  -1.541058e+002 
5287641375  -2.567174e+001  -1.545139e+002 
5300141000  -2.562410e+001  -1.548545e+002 
5312640625  -2.558655e+001  -1.552181e+002 
5325140250  -2.554189e+001  -1.556089e+002 
5337639875  -2.550806e+001  -1.560132e+002 
5350139500  -2.546437e+001  -1.563499e+002 
5362639125  -2.542815e+001  -1.567169e+002 
5375138750  -2.538624e+001  -1.570594e+002 
5387638375  -2.535318e+001  -1.574464e+002 
5400138000  -2.531863e+001  -1.578049e+002 
5412637625  -2.528410e+001  -1.581354e+002 
5425137250  -2.524308e+001  -1.585087e+002 
5437636875  -2.520728e+001  -1.588356e+002 
5450136500  -2.517021e+001  -1.592057e+002 
5462636125  -2.513637e+001  -1.595392e+002 
5475135750  -2.509494e+001  -1.598788e+002 
5487635375  -2.505830e+001  -1.602284e+002 
5500135000  -2.502057e+001  -1.605926e+002 
5512634625  -2.498795e+001  -1.609668e+002 
5525134250  -2.495108e+001  -1.612807e+002 
5537633875  -2.492024e+001  -1.616575e+002 
