!Agilent Technologies,N5230A,MY45001695,A.07.50.67
!Agilent N5230A: A.07.50.67
!Date: Thursday, August 18, 2016 06:59:13
!Correction: S11(Full 1 Port(1)) 
!S1P File: Measurement: S11:
# Hz S  dB   R 50
300000  -1.043953e-002  9.420579e-002 
12799625  -1.000461e-004  -3.492924e-001 
25299250  5.133427e-005  -6.958107e-001 
37798875  1.543005e-004  -1.044176e+000 
50298500  7.536592e-004  -1.389645e+000 
62798125  1.904290e-004  -1.738850e+000 
75297750  9.653500e-004  -2.082669e+000 
87797375  1.083236e-003  -2.429593e+000 
100297000  8.622559e-004  -2.777533e+000 
112796625  5.802982e-004  -3.126326e+000 
125296250  5.752378e-004  -3.473113e+000 
137795875  1.833900e-004  -3.818208e+000 
150295500  -2.437739e-005  -4.163302e+000 
162795125  -2.122494e-004  -4.508860e+000 
175294750  6.847894e-005  -4.853483e+000 
187794375  1.429490e-004  -5.200740e+000 
200294000  6.816897e-004  -5.543676e+000 
212793625  2.455754e-004  -5.890985e+000 
225293250  3.687424e-004  -6.235898e+000 
237792875  9.252247e-004  -6.585421e+000 
250292500  6.905708e-004  -6.931695e+000 
262792125  5.620905e-004  -7.281143e+000 
275291750  7.943831e-004  -7.626630e+000 
287791375  5.646358e-004  -7.975458e+000 
300291000  1.769522e-004  -8.320370e+000 
312790625  3.380191e-004  -8.666995e+000 
325290250  -5.020510e-004  -9.014831e+000 
337789875  -8.556218e-004  -9.359908e+000 
350289500  -5.066718e-004  -9.700413e+000 
362789125  -1.783247e-004  -1.004568e+001 
375288750  -9.107277e-004  -1.039256e+001 
387788375  8.826198e-004  -1.074038e+001 
400288000  6.332662e-004  -1.108813e+001 
412787625  7.556233e-004  -1.143428e+001 
425287250  1.109545e-004  -1.177844e+001 
437786875  8.341322e-004  -1.212672e+001 
450286500  6.762638e-004  -1.247444e+001 
462786125  -5.787620e-004  -1.282528e+001 
475285750  -3.283005e-004  -1.316351e+001 
487785375  -4.971210e-005  -1.351225e+001 
500285000  -2.329654e-004  -1.385683e+001 
512784625  -4.540829e-004  -1.420321e+001 
525284250  -4.588998e-004  -1.454726e+001 
537783875  -3.740464e-004  -1.489243e+001 
550283500  2.022440e-004  -1.523713e+001 
562783125  5.440674e-006  -1.558737e+001 
575282750  1.420324e-004  -1.593006e+001 
587782375  1.435181e-004  -1.628052e+001 
600282000  2.400208e-004  -1.663032e+001 
612781625  -1.253438e-004  -1.697754e+001 
625281250  -2.738575e-004  -1.732324e+001 
637780875  -5.416033e-004  -1.766913e+001 
650280500  -8.792790e-004  -1.801316e+001 
662780125  -5.526916e-004  -1.836365e+001 
675279750  -9.082400e-004  -1.870837e+001 
687779375  -9.263595e-004  -1.905170e+001 
700279000  -1.093207e-003  -1.939861e+001 
712778625  -1.005211e-003  -1.974567e+001 
725278250  -8.175414e-004  -2.009242e+001 
737777875  -8.599964e-004  -2.043904e+001 
750277500  -3.880883e-004  -2.078549e+001 
762777125  -8.642184e-004  -2.113365e+001 
775276750  -6.569237e-004  -2.148240e+001 
787776375  -1.252581e-003  -2.182854e+001 
800276000  -1.325597e-003  -2.217309e+001 
812775625  -1.573458e-003  -2.251968e+001 
825275250  -1.037517e-003  -2.286741e+001 
837774875  -1.612293e-003  -2.321274e+001 
850274500  -1.025463e-003  -2.355835e+001 
862774125  -1.806484e-003  -2.390770e+001 
875273750  -1.823709e-003  -2.425261e+001 
887773375  -1.484901e-003  -2.459727e+001 
900273000  -1.334360e-003  -2.494367e+001 
912772625  -1.739630e-003  -2.528866e+001 
925272250  -1.565222e-003  -2.563507e+001 
937771875  -1.753681e-003  -2.598911e+001 
950271500  -2.122312e-003  -2.633469e+001 
962771125  -2.125817e-003  -2.668229e+001 
975270750  -2.205388e-003  -2.702727e+001 
987770375  -2.178576e-003  -2.737114e+001 
1000270000  -2.124116e-003  -2.772274e+001 
1012769625  -3.240258e-003  -2.806852e+001 
1025269250  -3.109185e-003  -2.841489e+001 
1037768875  -3.577578e-003  -2.876049e+001 
1050268500  -3.421546e-003  -2.910546e+001 
1062768125  -4.183266e-003  -2.944907e+001 
1075267750  -2.839827e-003  -2.979576e+001 
1087767375  -2.725304e-003  -3.014682e+001 
1100267000  -3.153228e-003  -3.049658e+001 
1112766625  -3.231795e-003  -3.084580e+001 
1125266250  -3.652460e-003  -3.119044e+001 
1137765875  -4.213241e-003  -3.153438e+001 
1150265500  -4.709010e-003  -3.188434e+001 
1162765125  -4.131605e-003  -3.222773e+001 
1175264750  -4.159275e-003  -3.257318e+001 
1187764375  -4.717813e-003  -3.291812e+001 
1200264000  -4.773194e-003  -3.326628e+001 
1212763625  -4.488678e-003  -3.361199e+001 
1225263250  -4.069658e-003  -3.396158e+001 
1237762875  -4.488651e-003  -3.431195e+001 
1250262500  -4.509103e-003  -3.465552e+001 
1262762125  -5.519717e-003  -3.500601e+001 
1275261750  -5.169414e-003  -3.535443e+001 
1287761375  -5.785523e-003  -3.570101e+001 
1300261000  -5.760354e-003  -3.604840e+001 
1312760625  -6.157203e-003  -3.639467e+001 
1325260250  -6.758259e-003  -3.673867e+001 
1337759875  -6.279301e-003  -3.708323e+001 
1350259500  -6.521763e-003  -3.742846e+001 
1362759125  -6.704281e-003  -3.777584e+001 
1375258750  -5.543079e-003  -3.812045e+001 
1387758375  -6.616524e-003  -3.846940e+001 
1400258000  -6.534548e-003  -3.881795e+001 
1412757625  -6.097142e-003  -3.916885e+001 
1425257250  -7.103120e-003  -3.951335e+001 
1437756875  -7.051602e-003  -3.985781e+001 
1450256500  -6.595979e-003  -4.020693e+001 
1462756125  -7.187646e-003  -4.055654e+001 
1475255750  -7.813272e-003  -4.090053e+001 
1487755375  -7.354022e-003  -4.124867e+001 
1500255000  -7.812482e-003  -4.159320e+001 
1512754625  -8.182026e-003  -4.194209e+001 
1525254250  -7.574774e-003  -4.228416e+001 
1537753875  -7.157244e-003  -4.263134e+001 
1550253500  -7.616357e-003  -4.298011e+001 
1562753125  -8.144616e-003  -4.333004e+001 
1575252750  -7.263780e-003  -4.367688e+001 
1587752375  -8.495472e-003  -4.402579e+001 
1600252000  -7.407221e-003  -4.437569e+001 
1612751625  -7.965330e-003  -4.471751e+001 
1625251250  -8.122307e-003  -4.506802e+001 
1637750875  -8.442518e-003  -4.541735e+001 
1650250500  -8.888039e-003  -4.576053e+001 
1662750125  -9.002991e-003  -4.610983e+001 
1675249750  -9.471816e-003  -4.645894e+001 
1687749375  -9.451247e-003  -4.680049e+001 
1700249000  -9.135852e-003  -4.714901e+001 
1712748625  -9.092852e-003  -4.749719e+001 
1725248250  -9.300142e-003  -4.784339e+001 
1737747875  -9.279401e-003  -4.819481e+001 
1750247500  -9.097288e-003  -4.853983e+001 
1762747125  -9.495763e-003  -4.888689e+001 
1775246750  -9.186198e-003  -4.923542e+001 
1787746375  -1.013679e-002  -4.958311e+001 
1800246000  -1.046302e-002  -4.993274e+001 
1812745625  -1.039129e-002  -5.027700e+001 
1825245250  -1.087660e-002  -5.062565e+001 
1837744875  -1.086905e-002  -5.097380e+001 
1850244500  -1.116487e-002  -5.132002e+001 
1862744125  -1.091911e-002  -5.166540e+001 
1875243750  -1.105499e-002  -5.201236e+001 
1887743375  -1.125898e-002  -5.236476e+001 
1900243000  -1.171785e-002  -5.271107e+001 
1912742625  -1.140952e-002  -5.305864e+001 
1925242250  -1.150388e-002  -5.340441e+001 
1937741875  -1.143587e-002  -5.375478e+001 
1950241500  -1.149876e-002  -5.410567e+001 
1962741125  -1.151969e-002  -5.445257e+001 
1975240750  -1.223076e-002  -5.479927e+001 
1987740375  -1.219626e-002  -5.514539e+001 
2000240000  -1.287215e-002  -5.549407e+001 
2012739625  -1.229706e-002  -5.584208e+001 
2025239250  -1.215316e-002  -5.619129e+001 
2037738875  -1.237940e-002  -5.653956e+001 
2050238500  -1.338752e-002  -5.688524e+001 
2062738125  -1.248086e-002  -5.723604e+001 
2075237750  -1.302369e-002  -5.758388e+001 
2087737375  -1.387238e-002  -5.793563e+001 
2100237000  -1.375641e-002  -5.827982e+001 
2112736625  -1.404512e-002  -5.862701e+001 
2125236250  -1.387006e-002  -5.898071e+001 
2137735875  -1.425646e-002  -5.932786e+001 
2150235500  -1.516327e-002  -5.967360e+001 
2162735125  -1.488759e-002  -6.002205e+001 
2175234750  -1.503348e-002  -6.036930e+001 
2187734375  -1.565714e-002  -6.071885e+001 
2200234000  -1.588245e-002  -6.106480e+001 
2212733625  -1.576685e-002  -6.141262e+001 
2225233250  -1.596014e-002  -6.176234e+001 
2237732875  -1.607684e-002  -6.211245e+001 
2250232500  -1.641272e-002  -6.245818e+001 
2262732125  -1.646880e-002  -6.281098e+001 
2275231750  -1.595102e-002  -6.315718e+001 
2287731375  -1.590248e-002  -6.350661e+001 
2300231000  -1.677254e-002  -6.385547e+001 
2312730625  -1.744507e-002  -6.420479e+001 
2325230250  -1.609518e-002  -6.455460e+001 
2337729875  -1.731216e-002  -6.490002e+001 
2350229500  -1.753980e-002  -6.525146e+001 
2362729125  -1.761271e-002  -6.559962e+001 
2375228750  -1.765392e-002  -6.594724e+001 
2387728375  -1.765864e-002  -6.629684e+001 
2400228000  -1.802804e-002  -6.664243e+001 
2412727625  -1.809915e-002  -6.699400e+001 
2425227250  -1.877621e-002  -6.733791e+001 
2437726875  -1.883542e-002  -6.769027e+001 
2450226500  -1.916661e-002  -6.804203e+001 
2462726125  -1.917880e-002  -6.838692e+001 
2475225750  -1.946475e-002  -6.873776e+001 
2487725375  -2.029740e-002  -6.908826e+001 
2500225000  -2.048108e-002  -6.943433e+001 
2512724625  -2.041721e-002  -6.978129e+001 
2525224250  -2.050568e-002  -7.013006e+001 
2537723875  -2.056208e-002  -7.048100e+001 
2550223500  -2.013927e-002  -7.082857e+001 
2562723125  -2.059334e-002  -7.117725e+001 
2575222750  -2.065862e-002  -7.152722e+001 
2587722375  -2.170001e-002  -7.187425e+001 
2600222000  -2.191823e-002  -7.222298e+001 
2612721625  -2.173242e-002  -7.257551e+001 
2625221250  -2.223380e-002  -7.292272e+001 
2637720875  -2.149574e-002  -7.327067e+001 
2650220500  -2.241659e-002  -7.361943e+001 
2662720125  -2.234285e-002  -7.396922e+001 
2675219750  -2.297262e-002  -7.431834e+001 
2687719375  -2.299003e-002  -7.466750e+001 
2700219000  -2.351223e-002  -7.501607e+001 
2712718625  -2.395055e-002  -7.536156e+001 
2725218250  -2.414983e-002  -7.571372e+001 
2737717875  -2.415876e-002  -7.605953e+001 
2750217500  -2.342898e-002  -7.641225e+001 
2762717125  -2.405061e-002  -7.676051e+001 
2775216750  -2.461475e-002  -7.711283e+001 
2787716375  -2.460147e-002  -7.745695e+001 
2800216000  -2.502024e-002  -7.781091e+001 
2812715625  -2.541423e-002  -7.816016e+001 
2825215250  -2.618703e-002  -7.850755e+001 
2837714875  -2.636307e-002  -7.885963e+001 
2850214500  -2.732902e-002  -7.920989e+001 
2862714125  -2.708252e-002  -7.955243e+001 
2875213750  -2.752157e-002  -7.990334e+001 
2887713375  -2.806636e-002  -8.025076e+001 
2900213000  -2.820158e-002  -8.060088e+001 
2912712625  -2.901716e-002  -8.095406e+001 
2925212250  -2.875620e-002  -8.130205e+001 
2937711875  -2.916995e-002  -8.164854e+001 
2950211500  -2.958995e-002  -8.200024e+001 
2962711125  -2.968420e-002  -8.234534e+001 
2975210750  -3.116045e-002  -8.269830e+001 
2987710375  -3.103779e-002  -8.304163e+001 
3000210000  -3.135971e-002  -8.339128e+001 
3012709625  -3.173308e-002  -8.374068e+001 
3025209250  -3.203557e-002  -8.408775e+001 
3037708875  -3.231798e-002  -8.443497e+001 
3050208500  -3.362727e-002  -8.478828e+001 
3062708125  -3.344478e-002  -8.513126e+001 
3075207750  -3.390087e-002  -8.548075e+001 
3087707375  -3.380616e-002  -8.582573e+001 
3100207000  -3.516217e-002  -8.617372e+001 
3112706625  -3.479506e-002  -8.652444e+001 
3125206250  -3.516753e-002  -8.687454e+001 
3137705875  -3.615407e-002  -8.721476e+001 
3150205500  -3.595264e-002  -8.756944e+001 
3162705125  -3.544330e-002  -8.791586e+001 
3175204750  -3.617611e-002  -8.826717e+001 
3187704375  -3.671229e-002  -8.861637e+001 
3200204000  -3.713521e-002  -8.896460e+001 
3212703625  -3.704502e-002  -8.931379e+001 
3225203250  -3.793161e-002  -8.965891e+001 
3237702875  -3.779526e-002  -9.000957e+001 
3250202500  -3.847696e-002  -9.035426e+001 
3262702125  -3.928041e-002  -9.070164e+001 
3275201750  -3.965003e-002  -9.104855e+001 
3287701375  -3.932031e-002  -9.139621e+001 
3300201000  -3.922618e-002  -9.174446e+001 
3312700625  -3.890445e-002  -9.208939e+001 
3325200250  -3.939180e-002  -9.243758e+001 
3337699875  -3.970897e-002  -9.279360e+001 
3350199500  -3.995160e-002  -9.314334e+001 
3362699125  -4.095706e-002  -9.349342e+001 
3375198750  -4.117276e-002  -9.383311e+001 
3387698375  -4.158314e-002  -9.418737e+001 
3400198000  -4.234202e-002  -9.453131e+001 
3412697625  -4.299863e-002  -9.487956e+001 
3425197250  -4.288198e-002  -9.522034e+001 
3437696875  -4.272787e-002  -9.557079e+001 
3450196500  -4.236863e-002  -9.591975e+001 
3462696125  -4.247611e-002  -9.626945e+001 
3475195750  -4.183083e-002  -9.661755e+001 
3487695375  -4.217283e-002  -9.696331e+001 
3500195000  -4.242325e-002  -9.732117e+001 
3512694625  -4.220490e-002  -9.766756e+001 
3525194250  -4.239588e-002  -9.801998e+001 
3537693875  -4.358061e-002  -9.837094e+001 
3550193500  -4.457660e-002  -9.871658e+001 
3562693125  -4.465672e-002  -9.906342e+001 
3575192750  -4.493767e-002  -9.941401e+001 
3587692375  -4.582999e-002  -9.975703e+001 
3600192000  -4.589271e-002  -1.001079e+002 
3612691625  -4.529979e-002  -1.004566e+002 
3625191250  -4.575145e-002  -1.008025e+002 
3637690875  -4.527571e-002  -1.011555e+002 
3650190500  -4.451391e-002  -1.015001e+002 
3662690125  -4.536356e-002  -1.018511e+002 
3675189750  -4.612311e-002  -1.022011e+002 
3687689375  -4.573198e-002  -1.025510e+002 
3700189000  -4.656357e-002  -1.028988e+002 
3712688625  -4.670539e-002  -1.032507e+002 
3725188250  -4.781326e-002  -1.036012e+002 
3737687875  -4.780354e-002  -1.039479e+002 
3750187500  -4.836883e-002  -1.043003e+002 
3762687125  -4.863101e-002  -1.046436e+002 
3775186750  -4.907704e-002  -1.049922e+002 
3787686375  -4.902583e-002  -1.053375e+002 
3800186000  -4.869306e-002  -1.056851e+002 
3812685625  -4.955126e-002  -1.060395e+002 
3825185250  -4.905817e-002  -1.063825e+002 
3837684875  -4.904714e-002  -1.067361e+002 
3850184500  -4.936692e-002  -1.070844e+002 
3862684125  -4.948206e-002  -1.074337e+002 
3875183750  -4.933823e-002  -1.077778e+002 
3887683375  -5.004213e-002  -1.081332e+002 
3900183000  -5.045347e-002  -1.084770e+002 
3912682625  -5.013473e-002  -1.088244e+002 
3925182250  -5.045292e-002  -1.091794e+002 
3937681875  -5.109121e-002  -1.095281e+002 
3950181500  -5.078677e-002  -1.098733e+002 
3962681125  -5.162423e-002  -1.102264e+002 
3975180750  -5.188926e-002  -1.105781e+002 
3987680375  -5.287549e-002  -1.109245e+002 
4000180000  -5.215957e-002  -1.112702e+002 
4012679625  -5.262294e-002  -1.116203e+002 
4025179250  -5.316741e-002  -1.119678e+002 
4037678875  -5.308315e-002  -1.123159e+002 
4050178500  -5.382441e-002  -1.126652e+002 
4062678125  -5.392097e-002  -1.130138e+002 
4075177750  -5.427428e-002  -1.133607e+002 
4087677375  -5.369992e-002  -1.137122e+002 
4100177000  -5.468306e-002  -1.140579e+002 
4112676625  -5.517250e-002  -1.144084e+002 
4125176250  -5.576773e-002  -1.147602e+002 
4137675875  -5.498891e-002  -1.151084e+002 
4150175500  -5.620774e-002  -1.154554e+002 
4162675125  -5.614553e-002  -1.158047e+002 
4175174750  -5.607302e-002  -1.161506e+002 
4187674375  -5.632773e-002  -1.165028e+002 
4200174000  -5.688065e-002  -1.168525e+002 
4212673625  -5.681786e-002  -1.171996e+002 
4225173250  -5.724366e-002  -1.175421e+002 
4237672875  -5.753273e-002  -1.178938e+002 
4250172500  -5.840876e-002  -1.182434e+002 
4262672125  -5.953454e-002  -1.185938e+002 
4275171750  -5.929355e-002  -1.189384e+002 
4287671375  -5.983904e-002  -1.192895e+002 
4300171000  -6.053404e-002  -1.196363e+002 
4312670625  -6.068499e-002  -1.199873e+002 
4325170250  -6.075168e-002  -1.203305e+002 
4337669875  -6.078507e-002  -1.206776e+002 
4350169500  -6.147526e-002  -1.210287e+002 
4362669125  -6.199384e-002  -1.213771e+002 
4375168750  -6.210722e-002  -1.217199e+002 
4387668375  -6.271026e-002  -1.220684e+002 
4400168000  -6.300522e-002  -1.224173e+002 
4412667625  -6.346367e-002  -1.227671e+002 
4425167250  -6.403708e-002  -1.231142e+002 
4437666875  -6.433479e-002  -1.234578e+002 
4450166500  -6.473274e-002  -1.238081e+002 
4462666125  -6.536797e-002  -1.241557e+002 
4475165750  -6.580257e-002  -1.244968e+002 
4487665375  -6.602980e-002  -1.248432e+002 
4500165000  -6.626622e-002  -1.251921e+002 
4512664625  -6.642083e-002  -1.255418e+002 
4525164250  -6.657641e-002  -1.258842e+002 
4537663875  -6.640401e-002  -1.262354e+002 
4550163500  -6.747659e-002  -1.265861e+002 
4562663125  -6.743928e-002  -1.269319e+002 
4575162750  -6.817853e-002  -1.272797e+002 
4587662375  -6.821911e-002  -1.276268e+002 
4600162000  -6.923423e-002  -1.279677e+002 
4612661625  -7.020479e-002  -1.283189e+002 
4625161250  -7.042275e-002  -1.286608e+002 
4637660875  -6.942901e-002  -1.290050e+002 
4650160500  -7.073576e-002  -1.293477e+002 
4662660125  -7.074425e-002  -1.296943e+002 
4675159750  -7.070743e-002  -1.300468e+002 
4687659375  -7.088011e-002  -1.303907e+002 
4700159000  -7.123512e-002  -1.307396e+002 
4712658625  -7.189172e-002  -1.310908e+002 
4725158250  -7.229520e-002  -1.314371e+002 
4737657875  -7.310943e-002  -1.317828e+002 
4750157500  -7.395659e-002  -1.321273e+002 
4762657125  -7.474366e-002  -1.324730e+002 
4775156750  -7.491554e-002  -1.328178e+002 
4787656375  -7.500875e-002  -1.331626e+002 
4800156000  -7.525698e-002  -1.335042e+002 
4812655625  -7.595406e-002  -1.338537e+002 
4825155250  -7.600000e-002  -1.342033e+002 
4837654875  -7.551976e-002  -1.345424e+002 
4850154500  -7.557073e-002  -1.348902e+002 
4862654125  -7.613572e-002  -1.352382e+002 
4875153750  -7.686442e-002  -1.355870e+002 
4887653375  -7.685463e-002  -1.359346e+002 
4900153000  -7.704295e-002  -1.362796e+002 
4912652625  -7.859969e-002  -1.366264e+002 
4925152250  -7.956773e-002  -1.369754e+002 
4937651875  -7.948439e-002  -1.373153e+002 
4950151500  -7.959135e-002  -1.376613e+002 
4962651125  -8.090138e-002  -1.380031e+002 
4975150750  -8.126957e-002  -1.383474e+002 
4987650375  -8.105469e-002  -1.386920e+002 
5000150000  -8.072311e-002  -1.390393e+002 
5012649625  -8.201180e-002  -1.393856e+002 
5025149250  -8.223886e-002  -1.397338e+002 
5037648875  -8.304223e-002  -1.400834e+002 
5050148500  -8.313309e-002  -1.404239e+002 
5062648125  -8.361289e-002  -1.407696e+002 
5075147750  -8.490567e-002  -1.411149e+002 
5087647375  -8.567982e-002  -1.414579e+002 
5100147000  -8.540189e-002  -1.417992e+002 
5112646625  -8.656397e-002  -1.421439e+002 
5125146250  -8.645733e-002  -1.424844e+002 
5137645875  -8.658235e-002  -1.428320e+002 
5150145500  -8.667386e-002  -1.431744e+002 
5162645125  -8.739530e-002  -1.435227e+002 
5175144750  -8.775505e-002  -1.438702e+002 
5187644375  -8.868232e-002  -1.442127e+002 
5200144000  -8.875605e-002  -1.445598e+002 
5212643625  -8.932371e-002  -1.448993e+002 
5225143250  -9.003709e-002  -1.452454e+002 
5237642875  -9.106174e-002  -1.455896e+002 
5250142500  -9.176403e-002  -1.459315e+002 
5262642125  -9.226956e-002  -1.462722e+002 
5275141750  -9.318609e-002  -1.466176e+002 
5287641375  -9.418806e-002  -1.469552e+002 
5300141000  -9.299673e-002  -1.473002e+002 
5312640625  -9.436732e-002  -1.476482e+002 
5325140250  -9.388614e-002  -1.479945e+002 
5337639875  -9.529805e-002  -1.483377e+002 
5350139500  -9.596206e-002  -1.486791e+002 
5362639125  -9.579331e-002  -1.490266e+002 
5375138750  -9.706905e-002  -1.493698e+002 
5387638375  -9.883849e-002  -1.497108e+002 
5400138000  -9.902032e-002  -1.500518e+002 
5412637625  -9.994024e-002  -1.503927e+002 
5425137250  -1.007024e-001  -1.507345e+002 
5437636875  -1.018039e-001  -1.510765e+002 
5450136500  -1.018312e-001  -1.514182e+002 
5462636125  -1.012605e-001  -1.517577e+002 
5475135750  -1.026067e-001  -1.520989e+002 
5487635375  -1.035370e-001  -1.524416e+002 
5500135000  -1.037757e-001  -1.527835e+002 
5512634625  -1.043424e-001  -1.531308e+002 
