!Agilent Technologies,N5230A,MY45001695,A.07.50.67
!Agilent N5230A: A.07.50.67
!Date: Thursday, August 18, 2016 06:58:48
!Correction: S11(Full 1 Port(1)) 
!S1P File: Measurement: S11:
# Hz S  dB   R 50
300000  7.351335e-004  -1.799984e+002 
12799625  -1.857829e-003  1.796434e+002 
25299250  -3.036303e-003  1.793052e+002 
37798875  -5.214687e-003  1.789603e+002 
50298500  -6.140910e-003  1.786251e+002 
62798125  -7.675145e-003  1.782890e+002 
75297750  -8.664010e-003  1.779554e+002 
87797375  -9.969773e-003  1.776260e+002 
100297000  -1.140606e-002  1.772918e+002 
112796625  -1.277121e-002  1.769612e+002 
125296250  -1.471645e-002  1.766316e+002 
137795875  -1.537880e-002  1.763032e+002 
150295500  -1.689541e-002  1.759739e+002 
162795125  -1.828763e-002  1.756426e+002 
175294750  -1.959587e-002  1.753192e+002 
187794375  -2.096942e-002  1.749907e+002 
200294000  -2.295810e-002  1.746615e+002 
212793625  -2.409174e-002  1.743408e+002 
225293250  -2.521767e-002  1.740144e+002 
237792875  -2.597142e-002  1.736883e+002 
250292500  -2.747820e-002  1.733676e+002 
262792125  -2.873391e-002  1.730433e+002 
275291750  -2.957378e-002  1.727194e+002 
287791375  -3.006355e-002  1.723928e+002 
300291000  -3.113103e-002  1.720726e+002 
312790625  -3.218149e-002  1.717440e+002 
325290250  -3.326175e-002  1.714250e+002 
337789875  -3.412849e-002  1.710997e+002 
350289500  -3.441711e-002  1.707749e+002 
362789125  -3.535029e-002  1.704535e+002 
375288750  -3.660453e-002  1.701325e+002 
387788375  -3.774032e-002  1.698072e+002 
400288000  -3.763235e-002  1.694837e+002 
412787625  -3.867501e-002  1.691601e+002 
425287250  -3.985976e-002  1.688395e+002 
437786875  -4.019197e-002  1.685193e+002 
450286500  -4.118941e-002  1.681936e+002 
462786125  -4.150531e-002  1.678724e+002 
475285750  -4.218597e-002  1.675479e+002 
487785375  -4.271821e-002  1.672282e+002 
500285000  -4.272685e-002  1.669029e+002 
512784625  -4.346201e-002  1.665808e+002 
525284250  -4.479329e-002  1.662585e+002 
537783875  -4.584142e-002  1.659393e+002 
550283500  -4.606638e-002  1.656144e+002 
562783125  -4.680872e-002  1.652930e+002 
575282750  -4.729555e-002  1.649704e+002 
587782375  -4.762890e-002  1.646490e+002 
600282000  -4.811539e-002  1.643285e+002 
612781625  -4.886583e-002  1.640060e+002 
625281250  -4.970760e-002  1.636859e+002 
637780875  -4.946515e-002  1.633654e+002 
650280500  -5.006603e-002  1.630388e+002 
662780125  -5.035082e-002  1.627207e+002 
675279750  -5.119728e-002  1.623971e+002 
687779375  -5.134229e-002  1.620785e+002 
700279000  -5.270982e-002  1.617527e+002 
712778625  -5.307880e-002  1.614322e+002 
725278250  -5.320843e-002  1.611075e+002 
737777875  -5.374354e-002  1.607876e+002 
750277500  -5.452778e-002  1.604657e+002 
762777125  -5.519929e-002  1.601472e+002 
775276750  -5.565963e-002  1.598258e+002 
787776375  -5.569785e-002  1.595033e+002 
800276000  -5.635453e-002  1.591811e+002 
812775625  -5.637348e-002  1.588623e+002 
825275250  -5.721962e-002  1.585425e+002 
837774875  -5.692804e-002  1.582149e+002 
850274500  -5.782023e-002  1.578932e+002 
862774125  -5.800936e-002  1.575722e+002 
875273750  -5.827991e-002  1.572538e+002 
887773375  -5.894851e-002  1.569310e+002 
900273000  -5.992385e-002  1.566124e+002 
912772625  -6.025906e-002  1.562900e+002 
925272250  -6.082616e-002  1.559695e+002 
937771875  -6.076320e-002  1.556500e+002 
950271500  -6.089969e-002  1.553298e+002 
962771125  -6.166138e-002  1.550061e+002 
975270750  -6.215202e-002  1.546851e+002 
987770375  -6.167177e-002  1.543592e+002 
1000270000  -6.280238e-002  1.540421e+002 
1012769625  -6.268743e-002  1.537196e+002 
1025269250  -6.284057e-002  1.533965e+002 
1037768875  -6.293674e-002  1.530812e+002 
1050268500  -6.346685e-002  1.527547e+002 
1062768125  -6.365241e-002  1.524401e+002 
1075267750  -6.423748e-002  1.521168e+002 
1087767375  -6.528139e-002  1.517987e+002 
1100267000  -6.510895e-002  1.514750e+002 
1112766625  -6.485065e-002  1.511547e+002 
1125266250  -6.507671e-002  1.508341e+002 
1137765875  -6.563749e-002  1.505199e+002 
1150265500  -6.609100e-002  1.501941e+002 
1162765125  -6.601657e-002  1.498747e+002 
1175264750  -6.626506e-002  1.495498e+002 
1187764375  -6.727295e-002  1.492310e+002 
1200264000  -6.691588e-002  1.489104e+002 
1212763625  -6.731051e-002  1.485860e+002 
1225263250  -6.798131e-002  1.482670e+002 
1237762875  -6.859381e-002  1.479470e+002 
1250262500  -6.861411e-002  1.476317e+002 
1262762125  -6.861270e-002  1.473107e+002 
1275261750  -6.915487e-002  1.469855e+002 
1287761375  -6.951287e-002  1.466676e+002 
1300261000  -6.923864e-002  1.463461e+002 
1312760625  -6.938597e-002  1.460250e+002 
1325260250  -6.913772e-002  1.457024e+002 
1337759875  -6.912404e-002  1.453816e+002 
1350259500  -7.010093e-002  1.450623e+002 
1362759125  -7.002680e-002  1.447423e+002 
1375258750  -6.994009e-002  1.444188e+002 
1387758375  -7.083746e-002  1.440994e+002 
1400258000  -7.075401e-002  1.437803e+002 
1412757625  -7.103632e-002  1.434588e+002 
1425257250  -7.126354e-002  1.431418e+002 
1437756875  -7.148882e-002  1.428181e+002 
1450256500  -7.112438e-002  1.424988e+002 
1462756125  -7.118938e-002  1.421775e+002 
1475255750  -7.183513e-002  1.418558e+002 
1487755375  -7.191171e-002  1.415329e+002 
1500255000  -7.176129e-002  1.412143e+002 
1512754625  -7.226098e-002  1.408964e+002 
1525254250  -7.258614e-002  1.405730e+002 
1537753875  -7.199223e-002  1.402519e+002 
1550253500  -7.273504e-002  1.399364e+002 
1562753125  -7.307094e-002  1.396125e+002 
1575252750  -7.321789e-002  1.392926e+002 
1587752375  -7.387447e-002  1.389748e+002 
1600252000  -7.320880e-002  1.386517e+002 
1612751625  -7.370739e-002  1.383345e+002 
1625251250  -7.353298e-002  1.380108e+002 
1637750875  -7.337414e-002  1.376875e+002 
1650250500  -7.396659e-002  1.373681e+002 
1662750125  -7.344915e-002  1.370475e+002 
1675249750  -7.396174e-002  1.367271e+002 
1687749375  -7.373022e-002  1.364090e+002 
1700249000  -7.386257e-002  1.360850e+002 
1712748625  -7.445866e-002  1.357663e+002 
1725248250  -7.476538e-002  1.354458e+002 
1737747875  -7.534304e-002  1.351236e+002 
1750247500  -7.440050e-002  1.348050e+002 
1762747125  -7.535341e-002  1.344838e+002 
1775246750  -7.540124e-002  1.341648e+002 
1787746375  -7.493801e-002  1.338440e+002 
1800246000  -7.552289e-002  1.335230e+002 
1812745625  -7.528725e-002  1.332014e+002 
1825245250  -7.512952e-002  1.328819e+002 
1837744875  -7.526156e-002  1.325638e+002 
1850244500  -7.516642e-002  1.322391e+002 
1862744125  -7.520777e-002  1.319188e+002 
1875243750  -7.556079e-002  1.315960e+002 
1887743375  -7.568080e-002  1.312781e+002 
1900243000  -7.577781e-002  1.309580e+002 
1912742625  -7.560184e-002  1.306364e+002 
1925242250  -7.578556e-002  1.303149e+002 
1937741875  -7.640699e-002  1.299960e+002 
1950241500  -7.628216e-002  1.296752e+002 
1962741125  -7.622704e-002  1.293563e+002 
1975240750  -7.637120e-002  1.290338e+002 
1987740375  -7.637088e-002  1.287142e+002 
2000240000  -7.579403e-002  1.283943e+002 
2012739625  -7.673130e-002  1.280753e+002 
2025239250  -7.642589e-002  1.277526e+002 
2037738875  -7.660564e-002  1.274354e+002 
2050238500  -7.618107e-002  1.271088e+002 
2062738125  -7.678899e-002  1.267893e+002 
2075237750  -7.688655e-002  1.264681e+002 
2087737375  -7.645255e-002  1.261497e+002 
2100237000  -7.689387e-002  1.258317e+002 
2112736625  -7.734996e-002  1.255099e+002 
2125236250  -7.705074e-002  1.251917e+002 
2137735875  -7.696106e-002  1.248710e+002 
2150235500  -7.706644e-002  1.245501e+002 
2162735125  -7.685781e-002  1.242292e+002 
2175234750  -7.662669e-002  1.239075e+002 
2187734375  -7.666132e-002  1.235867e+002 
2200234000  -7.663644e-002  1.232672e+002 
2212733625  -7.724795e-002  1.229431e+002 
2225233250  -7.679197e-002  1.226260e+002 
2237732875  -7.709616e-002  1.223039e+002 
2250232500  -7.754509e-002  1.219833e+002 
2262732125  -7.686068e-002  1.216614e+002 
2275231750  -7.731725e-002  1.213448e+002 
2287731375  -7.683476e-002  1.210218e+002 
2300231000  -7.721966e-002  1.207020e+002 
2312730625  -7.733731e-002  1.203833e+002 
2325230250  -7.720115e-002  1.200611e+002 
2337729875  -7.726513e-002  1.197406e+002 
2350229500  -7.727788e-002  1.194197e+002 
2362729125  -7.690721e-002  1.190996e+002 
2375228750  -7.654855e-002  1.187828e+002 
2387728375  -7.707447e-002  1.184568e+002 
2400228000  -7.724616e-002  1.181373e+002 
2412727625  -7.712411e-002  1.178171e+002 
2425227250  -7.709191e-002  1.174977e+002 
2437726875  -7.693763e-002  1.171775e+002 
2450226500  -7.744737e-002  1.168545e+002 
2462726125  -7.727428e-002  1.165328e+002 
2475225750  -7.737186e-002  1.162149e+002 
2487725375  -7.758093e-002  1.158911e+002 
2500225000  -7.791053e-002  1.155750e+002 
2512724625  -7.748484e-002  1.152508e+002 
2525224250  -7.764749e-002  1.149300e+002 
2537723875  -7.783595e-002  1.146124e+002 
2550223500  -7.744765e-002  1.142872e+002 
2562723125  -7.702217e-002  1.139665e+002 
2575222750  -7.784767e-002  1.136430e+002 
2587722375  -7.769336e-002  1.133249e+002 
2600222000  -7.779744e-002  1.130075e+002 
2612721625  -7.759811e-002  1.126875e+002 
2625221250  -7.787469e-002  1.123637e+002 
2637720875  -7.786769e-002  1.120462e+002 
2650220500  -7.751197e-002  1.117252e+002 
2662720125  -7.765247e-002  1.114019e+002 
2675219750  -7.751268e-002  1.110829e+002 
2687719375  -7.670524e-002  1.107602e+002 
2700219000  -7.733554e-002  1.104396e+002 
2712718625  -7.748312e-002  1.101182e+002 
2725218250  -7.711294e-002  1.098027e+002 
2737717875  -7.739214e-002  1.094784e+002 
2750217500  -7.736982e-002  1.091547e+002 
2762717125  -7.756006e-002  1.088355e+002 
2775216750  -7.738299e-002  1.085149e+002 
2787716375  -7.748749e-002  1.081945e+002 
2800216000  -7.671397e-002  1.078787e+002 
2812715625  -7.726667e-002  1.075586e+002 
2825215250  -7.683191e-002  1.072344e+002 
2837714875  -7.692553e-002  1.069113e+002 
2850214500  -7.726724e-002  1.065912e+002 
2862714125  -7.707132e-002  1.062717e+002 
2875213750  -7.615085e-002  1.059456e+002 
2887713375  -7.648147e-002  1.056271e+002 
2900213000  -7.641936e-002  1.053075e+002 
2912712625  -7.673259e-002  1.049886e+002 
2925212250  -7.648838e-002  1.046685e+002 
2937711875  -7.703818e-002  1.043449e+002 
2950211500  -7.703013e-002  1.040248e+002 
2962711125  -7.649387e-002  1.037058e+002 
2975210750  -7.626060e-002  1.033823e+002 
2987710375  -7.642956e-002  1.030654e+002 
3000210000  -7.655334e-002  1.027402e+002 
3012709625  -7.652552e-002  1.024239e+002 
3025209250  -7.621681e-002  1.020985e+002 
3037708875  -7.634983e-002  1.017769e+002 
3050208500  -7.619765e-002  1.014598e+002 
3062708125  -7.573818e-002  1.011374e+002 
3075207750  -7.560336e-002  1.008155e+002 
3087707375  -7.624024e-002  1.004939e+002 
3100207000  -7.621104e-002  1.001794e+002 
3112706625  -7.585540e-002  9.985361e+001 
3125206250  -7.501841e-002  9.953170e+001 
3137705875  -7.598484e-002  9.921124e+001 
3150205500  -7.578615e-002  9.889581e+001 
3162705125  -7.495382e-002  9.857114e+001 
3175204750  -7.509927e-002  9.824888e+001 
3187704375  -7.547927e-002  9.793288e+001 
3200204000  -7.511847e-002  9.760799e+001 
3212703625  -7.496166e-002  9.728556e+001 
3225203250  -7.488864e-002  9.696184e+001 
3237702875  -7.451880e-002  9.664053e+001 
3250202500  -7.494396e-002  9.631934e+001 
3262702125  -7.484488e-002  9.600144e+001 
3275201750  -7.459080e-002  9.567702e+001 
3287701375  -7.384794e-002  9.535957e+001 
3300201000  -7.457332e-002  9.503513e+001 
3312700625  -7.377618e-002  9.471905e+001 
3325200250  -7.417586e-002  9.439778e+001 
3337699875  -7.311181e-002  9.407701e+001 
3350199500  -7.345937e-002  9.375127e+001 
3362699125  -7.300410e-002  9.342939e+001 
3375198750  -7.415620e-002  9.310767e+001 
3387698375  -7.334428e-002  9.278481e+001 
3400198000  -7.346303e-002  9.246687e+001 
3412697625  -7.302868e-002  9.214672e+001 
3425197250  -7.325009e-002  9.182297e+001 
3437696875  -7.306643e-002  9.150232e+001 
3450196500  -7.276355e-002  9.118159e+001 
3462696125  -7.286943e-002  9.086111e+001 
3475195750  -7.325217e-002  9.053999e+001 
3487695375  -7.272968e-002  9.021998e+001 
3500195000  -7.266316e-002  8.990063e+001 
3512694625  -7.279222e-002  8.957541e+001 
3525194250  -7.261232e-002  8.925580e+001 
3537693875  -7.177586e-002  8.893198e+001 
3550193500  -7.260297e-002  8.860992e+001 
3562693125  -7.158397e-002  8.828975e+001 
3575192750  -7.170414e-002  8.796674e+001 
3587692375  -7.088076e-002  8.764544e+001 
3600192000  -7.180294e-002  8.732723e+001 
3612691625  -7.189060e-002  8.700336e+001 
3625191250  -7.110368e-002  8.668475e+001 
3637690875  -7.135752e-002  8.635905e+001 
3650190500  -7.076228e-002  8.603910e+001 
3662690125  -7.038037e-002  8.571774e+001 
3675189750  -6.995199e-002  8.539949e+001 
3687689375  -7.079539e-002  8.507291e+001 
3700189000  -7.072280e-002  8.475282e+001 
3712688625  -7.036085e-002  8.443438e+001 
3725188250  -7.005423e-002  8.411241e+001 
3737687875  -7.023970e-002  8.378925e+001 
3750187500  -6.956024e-002  8.346732e+001 
3762687125  -6.983685e-002  8.314231e+001 
3775186750  -6.907705e-002  8.281886e+001 
3787686375  -6.989133e-002  8.250106e+001 
3800186000  -6.859200e-002  8.217760e+001 
3812685625  -6.875364e-002  8.185552e+001 
3825185250  -6.857634e-002  8.153225e+001 
3837684875  -6.819346e-002  8.121188e+001 
3850184500  -6.886397e-002  8.089041e+001 
3862684125  -6.758369e-002  8.056929e+001 
3875183750  -6.818681e-002  8.024831e+001 
3887683375  -6.839245e-002  7.991833e+001 
3900183000  -6.847319e-002  7.959979e+001 
3912682625  -6.776494e-002  7.928012e+001 
3925182250  -6.701396e-002  7.895705e+001 
3937681875  -6.760006e-002  7.863376e+001 
3950181500  -6.757411e-002  7.830987e+001 
3962681125  -6.718405e-002  7.799168e+001 
3975180750  -6.690733e-002  7.766555e+001 
3987680375  -6.667416e-002  7.734054e+001 
4000180000  -6.649741e-002  7.702113e+001 
4012679625  -6.593825e-002  7.669832e+001 
4025179250  -6.612407e-002  7.637415e+001 
4037678875  -6.645934e-002  7.605213e+001 
4050178500  -6.618513e-002  7.573168e+001 
4062678125  -6.521112e-002  7.540813e+001 
4075177750  -6.524163e-002  7.508401e+001 
4087677375  -6.560796e-002  7.476070e+001 
4100177000  -6.492520e-002  7.444158e+001 
4112676625  -6.534334e-002  7.412013e+001 
4125176250  -6.521074e-002  7.379402e+001 
4137675875  -6.450131e-002  7.347089e+001 
4150175500  -6.420409e-002  7.315112e+001 
4162675125  -6.506847e-002  7.281933e+001 
4175174750  -6.383511e-002  7.250188e+001 
4187674375  -6.418084e-002  7.218197e+001 
4200174000  -6.415981e-002  7.185464e+001 
4212673625  -6.372375e-002  7.153135e+001 
4225173250  -6.323125e-002  7.120927e+001 
4237672875  -6.316353e-002  7.088811e+001 
4250172500  -6.219497e-002  7.056634e+001 
4262672125  -6.301464e-002  7.024328e+001 
4275171750  -6.250618e-002  6.991769e+001 
4287671375  -6.276092e-002  6.959591e+001 
4300171000  -6.183756e-002  6.927267e+001 
4312670625  -6.232027e-002  6.894981e+001 
4325170250  -6.236555e-002  6.862148e+001 
4337669875  -6.263819e-002  6.829971e+001 
4350169500  -6.208664e-002  6.797735e+001 
4362669125  -6.192849e-002  6.764746e+001 
4375168750  -6.143188e-002  6.732960e+001 
4387668375  -6.138483e-002  6.700621e+001 
4400168000  -6.181403e-002  6.668156e+001 
4412667625  -6.063573e-002  6.635969e+001 
4425167250  -6.094397e-002  6.603513e+001 
4437666875  -5.999542e-002  6.571192e+001 
4450166500  -5.971623e-002  6.538499e+001 
4462666125  -6.079999e-002  6.506730e+001 
4475165750  -6.010319e-002  6.473992e+001 
4487665375  -5.968337e-002  6.440844e+001 
4500165000  -5.990956e-002  6.409102e+001 
4512664625  -5.936176e-002  6.376302e+001 
4525164250  -5.941365e-002  6.344065e+001 
4537663875  -5.995680e-002  6.312438e+001 
4550163500  -5.990838e-002  6.279609e+001 
4562663125  -5.942495e-002  6.246906e+001 
4575162750  -5.902477e-002  6.214965e+001 
4587662375  -5.887725e-002  6.182320e+001 
4600162000  -5.869263e-002  6.149736e+001 
4612661625  -5.870973e-002  6.117551e+001 
4625161250  -5.849609e-002  6.085246e+001 
4637660875  -5.806889e-002  6.052826e+001 
4650160500  -5.826445e-002  6.020155e+001 
4662660125  -5.828222e-002  5.987468e+001 
4675159750  -5.824144e-002  5.955030e+001 
4687659375  -5.775198e-002  5.922760e+001 
4700159000  -5.792850e-002  5.890367e+001 
4712658625  -5.869246e-002  5.858240e+001 
4725158250  -5.702546e-002  5.825884e+001 
4737657875  -5.744214e-002  5.793361e+001 
4750157500  -5.745040e-002  5.761333e+001 
4762657125  -5.640496e-002  5.728189e+001 
4775156750  -5.644289e-002  5.696023e+001 
4787656375  -5.623963e-002  5.663601e+001 
4800156000  -5.620167e-002  5.630878e+001 
4812655625  -5.598617e-002  5.598389e+001 
4825155250  -5.572915e-002  5.566061e+001 
4837654875  -5.615582e-002  5.533311e+001 
4850154500  -5.649887e-002  5.501104e+001 
4862654125  -5.607877e-002  5.468434e+001 
4875153750  -5.580959e-002  5.436299e+001 
4887653375  -5.511243e-002  5.403752e+001 
4900153000  -5.503995e-002  5.371181e+001 
4912652625  -5.465081e-002  5.338447e+001 
4925152250  -5.462259e-002  5.306060e+001 
4937651875  -5.419295e-002  5.273923e+001 
4950151500  -5.453363e-002  5.241058e+001 
4962651125  -5.402365e-002  5.208295e+001 
4975150750  -5.451453e-002  5.175636e+001 
4987650375  -5.421978e-002  5.143555e+001 
5000150000  -5.410283e-002  5.111193e+001 
5012649625  -5.396754e-002  5.078550e+001 
5025149250  -5.409381e-002  5.045889e+001 
5037648875  -5.377429e-002  5.013823e+001 
5050148500  -5.260083e-002  4.981154e+001 
5062648125  -5.294033e-002  4.948510e+001 
5075147750  -5.347599e-002  4.915788e+001 
5087647375  -5.314935e-002  4.883116e+001 
5100147000  -5.190817e-002  4.850785e+001 
5112646625  -5.206715e-002  4.817597e+001 
5125146250  -5.213750e-002  4.784829e+001 
5137645875  -5.222714e-002  4.752751e+001 
5150145500  -5.191916e-002  4.719947e+001 
5162645125  -5.222363e-002  4.687276e+001 
5175144750  -5.256760e-002  4.655064e+001 
5187644375  -5.234091e-002  4.622450e+001 
5200144000  -5.252064e-002  4.590097e+001 
5212643625  -5.131371e-002  4.557554e+001 
5225143250  -5.094091e-002  4.524989e+001 
5237642875  -5.114358e-002  4.492733e+001 
5250142500  -5.053123e-002  4.460137e+001 
5262642125  -4.997760e-002  4.427137e+001 
5275141750  -4.938142e-002  4.394073e+001 
5287641375  -4.968413e-002  4.361666e+001 
5300141000  -4.941490e-002  4.328955e+001 
5312640625  -4.936213e-002  4.296486e+001 
5325140250  -4.944765e-002  4.263618e+001 
5337639875  -4.963073e-002  4.230903e+001 
5350139500  -4.938155e-002  4.198351e+001 
5362639125  -4.864909e-002  4.166018e+001 
5375138750  -4.898230e-002  4.133195e+001 
5387638375  -4.874603e-002  4.100657e+001 
5400138000  -4.818211e-002  4.067839e+001 
5412637625  -4.761025e-002  4.035107e+001 
5425137250  -4.717273e-002  4.002422e+001 
5437636875  -4.734123e-002  3.969777e+001 
5450136500  -4.682949e-002  3.936989e+001 
5462636125  -4.676337e-002  3.904277e+001 
5475135750  -4.676321e-002  3.871343e+001 
5487635375  -4.652683e-002  3.839196e+001 
5500135000  -4.671602e-002  3.806477e+001 
5512634625  -4.664452e-002  3.773836e+001 
5525134250  -4.653678e-002  3.741214e+001 
5537633875  -4.562084e-002  3.708310e+001 
5550133500  -4.534027e-002  3.675416e+001 
5562633125  -4.472912e-002  3.642773e+001 
5575132750  -4.419216e-002  3.609731e+001 
5587632375  -4.440415e-002  3.576828e+001 
5600132000  -4.372443e-002  3.543738e+001 
5612631625  -4.415727e-002  3.511187e+001 
5625131250  -4.412559e-002  3.478009e+001 
